T0470 89022:190 SEGGER J-Link V6.32i Log File (0000ms, 87392ms total)
T0470 89022:190 DLL Compiled: Jul 24 2018 15:19:55 (0000ms, 87392ms total)
T0470 89022:190 Logging started @ 2019-05-04 20:48 (0000ms, 87392ms total)
T0470 89022:190 JLINK_SetWarnOutHandler(...) (0000ms, 87392ms total)
T0470 89022:190 JLINK_OpenEx(...)
Firmware: J-Link V9 compiled Aug 23 2018 09:45:44
Hardware: V9.40
S/N: 36410082
Feature(s): RDI, GDB, FlashDL, FlashBP, JFlash
TELNET listener socket opened on port 19021WEBSRV 
Starting webserver (0021ms, 87413ms total)
T0470 89022:190 WEBSRV Webserver running on local port 19080 (0021ms, 87413ms total)
T0470 89022:190   returns O.K. (0021ms, 87413ms total)
T0470 89022:211 JLINK_GetEmuCaps()  returns 0xB9FF7BBF (0000ms, 87413ms total)
T0470 89022:211 JLINK_TIF_GetAvailable(...) (0001ms, 87414ms total)
T0470 89022:212 JLINK_SetErrorOutHandler(...) (0000ms, 87414ms total)
T0470 89022:212 JLINK_ExecCommand("ProjectFile = "E:\ARM\ÑªÑõ¼ì²â¼ì²âÒÇ\PulseOximter\ÑªÑõ\MDK-ARM\JLinkSettings.ini"", ...).   returns 0x00 (0001ms, 87415ms total)
T0470 89022:216 JLINK_ExecCommand("Device = STM32F103RC", ...). Device "STM32F103RC" selected.  returns 0x00 (0013ms, 87429ms total)
T0470 89022:230 JLINK_ExecCommand("DisableConnectionTimeout", ...).   returns 0x01 (0000ms, 87429ms total)
T0470 89022:230 JLINK_GetHardwareVersion()  returns 0x16F30 (0000ms, 87429ms total)
T0470 89022:230 JLINK_GetDLLVersion()  returns 63209 (0000ms, 87429ms total)
T0470 89022:230 JLINK_GetFirmwareString(...) (0000ms, 87429ms total)
T0470 89022:243 JLINK_GetDLLVersion()  returns 63209 (0000ms, 87429ms total)
T0470 89022:243 JLINK_GetCompileDateTime() (0000ms, 87429ms total)
T0470 89022:245 JLINK_GetFirmwareString(...) (0000ms, 87429ms total)
T0470 89022:248 JLINK_GetHardwareVersion()  returns 0x16F30 (0000ms, 87429ms total)
T0470 89022:258 JLINK_TIF_Select(JLINKARM_TIF_SWD)  returns 0x00 (0001ms, 87430ms total)
T0470 89022:259 JLINK_SetSpeed(1000) (0000ms, 87430ms total)
T0470 89022:259 JLINK_GetId() >0x10B TIF>Found SW-DP with ID 0x1BA01477 >0x0D TIF> >0x28 TIF> >0x0D TIF> >0x28 TIF> >0x0D TIF> >0x28 TIF> >0x0D TIF> >0x28 TIF> >0x0D TIF> >0x21 TIF> >0x0D TIF> >0x28 TIF> >0x0D TIF> >0x28 TIF> >0x0D TIF> >0x28 TIF> >0x0D TIF> >0x21 TIF> >0x0D TIF> >0x21 TIF> >0x0D TIF> >0x28 TIF> >0x0D TIF> >0x21 TIF> >0x0D TIF> >0x21 TIF> >0x0D TIF> >0x28 TIF> >0x0D TIF> >0x21 TIF> >0x0D TIF> >0x21 TIF> >0x0D TIF> >0x28 TIF> >0x0D TIF> >0x21 TIF> >0x0D TIF> >0x21 TIF> >0x0D TIF>
 >0x28 TIF> >0x0D TIF> >0x21 TIF> >0x0D TIF> >0x21 TIF> >0x0D TIF> >0x28 TIF> >0x0D TIF> >0x21 TIF> >0x0D TIF> >0x21 TIF> >0x0D TIF> >0x28 TIF> >0x0D TIF> >0x21 TIF> >0x0D TIF> >0x21 TIF> >0x10B TIF>Found SW-DP with ID 0x1BA01477 >0x0D TIF> >0x28 TIF> >0x0D TIF> >0x28 TIF> >0x0D TIF> >0x28 TIF> >0x0D TIF> >0x28 TIF> >0x0D TIF> >0x21 TIF> >0x0D TIF> >0x28 TIF>Scanning AP map to find all available APs >0x0D TIF> >0x28 TIF> >0x0D TIF> >0x21 TIF> >0x0D TIF> >0x21 TIF> >0x0D TIF> >0x28 TIF> >0x0D TIF>
 >0x21 TIF> >0x0D TIF> >0x21 TIF>AP[1]: Stopped AP scan as end of AP map has been reachedAP[0]: AHB-AP (IDR: 0x14770011)Iterating through AP map to find AHB-AP to use >0x42 TIF> >0x28 TIF> >0x0D TIF> >0x28 TIF> >0x0D TIF> >0x21 TIF> >0x0D TIF> >0x21 TIF> >0x42 TIF> >0x28 TIF> >0x0D TIF> >0x28 TIF> >0x0D TIF> >0x28 TIF> >0x0D TIF> >0x21 TIF> >0x0D TIF> >0x21 TIF>AP[0]: Core foundAP[0]: AHB-AP ROM base: 0xE00FF000 >0x0D TIF> >0x28 TIF> >0x0D TIF> >0x28 TIF> >0x0D TIF> >0x28 TIF> >0x0D TIF> >0x21 TIF>
 >0x0D TIF> >0x21 TIF>CPUID register: 0x411FC231. Implementer code: 0x41 (ARM)Found Cortex-M3 r1p1, Little endian. -- Max. mem block: 0x00010F28 -- CPU_ReadMem(4 bytes @ 0xE000EDF0) -- CPU_WriteMem(4 bytes @ 0xE000EDF0) -- CPU_ReadMem(4 bytes @ 0xE0002000)FPUnit: 6 code (BP) slots and 2 literal slots -- CPU_ReadMem(4 bytes @ 0xE000EDFC) -- CPU_WriteMem(4 bytes @ 0xE000EDFC) -- CPU_ReadMem(4 bytes @ 0xE0001000) -- CPU_WriteMem(4 bytes @ 0xE0001000) -- CPU_ReadMem(4 bytes @ 0xE000ED88)
 -- CPU_WriteMem(4 bytes @ 0xE000ED88) -- CPU_ReadMem(4 bytes @ 0xE000ED88) -- CPU_WriteMem(4 bytes @ 0xE000ED88)CoreSight components:ROMTbl[0] @ E00FF000 -- CPU_ReadMem(16 bytes @ 0xE00FF000) -- CPU_ReadMem(16 bytes @ 0xE000EFF0) -- CPU_ReadMem(16 bytes @ 0xE000EFE0)ROMTbl[0][0]: E000E000, CID: B105E00D, PID: 001BB000 SCS -- CPU_ReadMem(16 bytes @ 0xE0001FF0) -- CPU_ReadMem(16 bytes @ 0xE0001FE0)ROMTbl[0][1]: E0001000, CID: B105E00D, PID: 001BB002 DWT -- CPU_ReadMem(16 bytes @ 0xE0002FF0)
 -- CPU_ReadMem(16 bytes @ 0xE0002FE0)ROMTbl[0][2]: E0002000, CID: B105E00D, PID: 000BB003 FPB -- CPU_ReadMem(16 bytes @ 0xE0000FF0) -- CPU_ReadMem(16 bytes @ 0xE0000FE0)ROMTbl[0][3]: E0000000, CID: B105E00D, PID: 001BB001 ITM -- CPU_ReadMem(16 bytes @ 0xE00FF010) -- CPU_ReadMem(16 bytes @ 0xE0040FF0) -- CPU_ReadMem(16 bytes @ 0xE0040FE0)ROMTbl[0][4]: E0040000, CID: B105900D, PID: 001BB923 TPIU-Lite >0x0D TIF> >0x21 TIF>  returns 0x1BA01477 (0199ms, 87629ms total)
T0470 89022:458 JLINK_GetDLLVersion()  returns 63209 (0000ms, 87629ms total)
T0470 89022:458 JLINK_CORE_GetFound()  returns 0x30000FF (0000ms, 87629ms total)
T0470 89022:458 JLINK_GetDebugInfo(0x100 = JLINKARM_ROM_TABLE_ADDR_INDEX) -- Value=0xE00FF000  returns 0x00 (0000ms, 87629ms total)
T0470 89022:461 JLINK_GetDebugInfo(0x100 = JLINKARM_ROM_TABLE_ADDR_INDEX) -- Value=0xE00FF000  returns 0x00 (0000ms, 87629ms total)
T0470 89022:461 JLINK_GetDebugInfo(0x101 = JLINKARM_DEBUG_INFO_ETM_ADDR_INDEX) -- Value=0x00000000  returns 0x00 (0000ms, 87629ms total)
T0470 89022:461 JLINK_ReadMemEx(0xE0041FF0, 0x0010 Bytes, ..., Flags = 0x02000004) -- CPU_ReadMem(16 bytes @ 0xE0041FF0) - Data: 00 00 00 00 00 00 00 00 00 00 00 00 00 00 00 00  returns 0x10 (0001ms, 87630ms total)
T0470 89022:462 JLINK_GetDebugInfo(0x102 = JLINKARM_DEBUG_INFO_MTB_ADDR_INDEX) -- Value=0x00000000  returns 0x00 (0000ms, 87630ms total)
T0470 89022:462 JLINK_GetDebugInfo(0x103 = JLINKARM_DEBUG_INFO_TPIU_ADDR_INDEX) -- Value=0xE0040000  returns 0x00 (0000ms, 87630ms total)
T0470 89022:462 JLINK_GetDebugInfo(0x104 = JLINKARM_DEBUG_INFO_ITM_ADDR_INDEX) -- Value=0xE0000000  returns 0x00 (0000ms, 87630ms total)
T0470 89022:462 JLINK_GetDebugInfo(0x105 = JLINKARM_DEBUG_INFO_DWT_ADDR_INDEX) -- Value=0xE0001000  returns 0x00 (0000ms, 87630ms total)
T0470 89022:462 JLINK_GetDebugInfo(0x106 = JLINKARM_DEBUG_INFO_FPB_ADDR_INDEX) -- Value=0xE0002000  returns 0x00 (0000ms, 87630ms total)
T0470 89022:462 JLINK_GetDebugInfo(0x107 = JLINKARM_DEBUG_INFO_NVIC_ADDR_INDEX) -- Value=0xE000E000  returns 0x00 (0000ms, 87630ms total)
T0470 89022:462 JLINK_GetDebugInfo(0x10C = JLINKARM_DEBUG_INFO_DBG_ADDR_INDEX) -- Value=0xE000EDF0  returns 0x00 (0000ms, 87630ms total)
T0470 89022:462 JLINK_GetDebugInfo(0x01 = Unknown) -- Value=0x00000000  returns 0x00 (0000ms, 87630ms total)
T0470 89022:462 JLINK_ReadMemU32(0xE000ED00, 0x0001 Items, ...) -- CPU_ReadMem(4 bytes @ 0xE000ED00) - Data: 31 C2 1F 41  returns 0x01 (0001ms, 87631ms total)
T0470 89022:463 JLINK_GetDebugInfo(0x10F = JLINKARM_DEBUG_INFO_HAS_CORTEX_M_SECURITY_EXT_INDEX) -- Value=0x00000000  returns 0x00 (0000ms, 87631ms total)
T0470 89022:463 JLINK_SetResetType(JLINKARM_CM3_RESET_TYPE_NORMAL)  returns JLINKARM_CM3_RESET_TYPE_NORMAL (0000ms, 87631ms total)
T0470 89022:463 JLINK_Reset() -- CPU is running -- CPU_WriteMem(4 bytes @ 0xE000EDF0) -- CPU is running -- CPU_WriteMem(4 bytes @ 0xE000EDFC)Reset: Halt core after reset via DEMCR.VC_CORERESET. >0x35 TIF>Reset: Reset device via AIRCR.SYSRESETREQ. -- CPU is running -- CPU_WriteMem(4 bytes @ 0xE000ED0C) >0x0D TIF> >0x28 TIF> -- CPU_ReadMem(4 bytes @ 0xE000EDF0) -- CPU_ReadMem(4 bytes @ 0xE000EDF0) -- CPU is running -- CPU_WriteMem(4 bytes @ 0xE000EDF0) -- CPU is running
 -- CPU_WriteMem(4 bytes @ 0xE000EDFC) -- CPU_ReadMem(4 bytes @ 0xE000EDF0) -- CPU_WriteMem(4 bytes @ 0xE0002000) -- CPU_ReadMem(4 bytes @ 0xE000EDFC) -- CPU_ReadMem(4 bytes @ 0xE0001000) (0081ms, 87712ms total)
T0470 89022:544 JLINK_Halt()  returns 0x00 (0000ms, 87712ms total)
T0470 89022:544 JLINK_ReadMemU32(0xE000EDF0, 0x0001 Items, ...) -- CPU_ReadMem(4 bytes @ 0xE000EDF0) - Data: 03 00 03 00  returns 0x01 (0001ms, 87713ms total)
T0470 89022:545 JLINK_WriteU32(0xE000EDF0, 0xA05F0003) -- CPU_WriteMem(4 bytes @ 0xE000EDF0)  returns 0x00 (0001ms, 87714ms total)
T0470 89022:546 JLINK_WriteU32(0xE000EDFC, 0x01000000) -- CPU_WriteMem(4 bytes @ 0xE000EDFC)  returns 0x00 (0000ms, 87714ms total)
T0470 89022:577 JLINK_GetHWStatus(...)  returns 0x00 (0000ms, 87714ms total)
T0470 89022:597 JLINK_GetNumBPUnits(Type = 0xFFFFFF00)  returns 0x06 (0000ms, 87714ms total)
T0470 89022:597 JLINK_GetNumBPUnits(Type = 0xF0)  returns 0x2000 (0000ms, 87714ms total)
T0470 89022:597 JLINK_GetNumWPUnits()  returns 0x04 (0000ms, 87714ms total)
T0470 89022:609 JLINK_GetSpeed()  returns 0x3E8 (0000ms, 87714ms total)
T0470 89022:616 JLINK_ReadMemU32(0xE000E004, 0x0001 Items, ...) -- CPU_ReadMem(4 bytes @ 0xE000E004) - Data: 01 00 00 00  returns 0x01 (0001ms, 87715ms total)
T0470 89022:617 JLINK_ReadMemU32(0xE000E004, 0x0001 Items, ...) -- CPU_ReadMem(4 bytes @ 0xE000E004) - Data: 01 00 00 00  returns 0x01 (0000ms, 87715ms total)
T0470 89022:617 JLINK_WriteMemEx(0xE0001000, 0x001C Bytes, ..., Flags = 0x02000004) - Data: 01 00 00 00 00 00 00 00 00 00 00 00 00 00 00 00 ... -- CPU_WriteMem(28 bytes @ 0xE0001000)  returns 0x1C (0002ms, 87717ms total)
T0470 89022:619 JLINK_Halt()  returns 0x00 (0000ms, 87717ms total)
T0470 89022:619 JLINK_IsHalted()  returns TRUE (0000ms, 87717ms total)
T0470 89022:622 JLINK_WriteMem(0x20000000, 0x0164 Bytes, ...) - Data: 00 BE 0A E0 0D 78 2D 06 68 40 08 24 40 00 00 D3 ... -- CPU_WriteMem(356 bytes @ 0x20000000)  returns 0x164 (0006ms, 87723ms total)
T0470 89022:628 JLINK_WriteReg(R0, 0x08000000)  returns 0x00 (0000ms, 87723ms total)
T0470 89022:628 JLINK_WriteReg(R1, 0x044AA200)  returns 0x00 (0000ms, 87723ms total)
T0470 89022:628 JLINK_WriteReg(R2, 0x00000001)  returns 0x00 (0000ms, 87723ms total)
T0470 89022:628 JLINK_WriteReg(R3, 0x00000000)  returns 0x00 (0000ms, 87723ms total)
T0470 89022:628 JLINK_WriteReg(R4, 0x00000000)  returns 0x00 (0000ms, 87723ms total)
T0470 89022:628 JLINK_WriteReg(R5, 0x00000000)  returns 0x00 (0000ms, 87723ms total)
T0470 89022:628 JLINK_WriteReg(R6, 0x00000000)  returns 0x00 (0000ms, 87723ms total)
T0470 89022:628 JLINK_WriteReg(R7, 0x00000000)  returns 0x00 (0000ms, 87723ms total)
T0470 89022:628 JLINK_WriteReg(R8, 0x00000000)  returns 0x00 (0000ms, 87723ms total)
T0470 89022:628 JLINK_WriteReg(R9, 0x20000160)  returns 0x00 (0000ms, 87723ms total)
T0470 89022:628 JLINK_WriteReg(R10, 0x00000000)  returns 0x00 (0000ms, 87723ms total)
T0470 89022:629 JLINK_WriteReg(R11, 0x00000000)  returns 0x00 (0000ms, 87724ms total)
T0470 89022:629 JLINK_WriteReg(R12, 0x00000000)  returns 0x00 (0000ms, 87724ms total)
T0470 89022:629 JLINK_WriteReg(R13 (SP), 0x20001000)  returns 0x00 (0000ms, 87724ms total)
T0470 89022:629 JLINK_WriteReg(R14, 0x20000001)  returns 0x00 (0000ms, 87724ms total)
T0470 89022:629 JLINK_WriteReg(R15 (PC), 0x20000038)  returns 0x00 (0000ms, 87724ms total)
T0470 89022:629 JLINK_WriteReg(XPSR, 0x01000000)  returns 0x00 (0000ms, 87724ms total)
T0470 89022:629 JLINK_WriteReg(MSP, 0x20001000)  returns 0x00 (0000ms, 87724ms total)
T0470 89022:629 JLINK_WriteReg(PSP, 0x20001000)  returns 0x00 (0000ms, 87724ms total)
T0470 89022:629 JLINK_WriteReg(CFBP, 0x00000000)  returns 0x00 (0000ms, 87724ms total)
T0470 89022:629 JLINK_SetBPEx(Addr = 0x20000000, Type = 0xFFFFFFF2) -- CPU_ReadMem(2 bytes @ 0x20000000)  returns 0x00000001 (0001ms, 87725ms total)
T0470 89022:630 JLINK_Go() -- CPU_WriteMem(2 bytes @ 0x20000000) -- CPU_ReadMem(4 bytes @ 0xE0001000) -- CPU_WriteMem(4 bytes @ 0xE0002008) -- CPU_WriteMem(4 bytes @ 0xE000200C) -- CPU_WriteMem(4 bytes @ 0xE0002010) -- CPU_WriteMem(4 bytes @ 0xE0002014) -- CPU_WriteMem(4 bytes @ 0xE0002018) -- CPU_WriteMem(4 bytes @ 0xE000201C) -- CPU_WriteMem(4 bytes @ 0xE0001004) (0009ms, 87734ms total)
T0470 89022:639 JLINK_IsHalted() -- CPU_ReadMem(2 bytes @ 0x20000000)  returns TRUE (0007ms, 87741ms total)
T0470 89022:646 JLINK_ReadReg(R15 (PC))  returns 0x20000000 (0000ms, 87734ms total)
T0470 89022:646 JLINK_ClrBPEx(BPHandle = 0x00000001)  returns 0x00 (0000ms, 87734ms total)
T0470 89022:646 JLINK_ReadReg(R0)  returns 0x00000000 (0000ms, 87734ms total)
T0470 89022:647 JLINK_WriteReg(R0, 0x08000000)  returns 0x00 (0000ms, 87734ms total)
T0470 89022:647 JLINK_WriteReg(R1, 0x044AA200)  returns 0x00 (0000ms, 87734ms total)
T0470 89022:647 JLINK_WriteReg(R2, 0x00000001)  returns 0x00 (0000ms, 87734ms total)
T0470 89022:647 JLINK_WriteReg(R3, 0x00000000)  returns 0x00 (0000ms, 87734ms total)
T0470 89022:647 JLINK_WriteReg(R4, 0x00000000)  returns 0x00 (0000ms, 87734ms total)
T0470 89022:647 JLINK_WriteReg(R5, 0x00000000)  returns 0x00 (0000ms, 87734ms total)
T0470 89022:647 JLINK_WriteReg(R6, 0x00000000)  returns 0x00 (0000ms, 87734ms total)
T0470 89022:647 JLINK_WriteReg(R7, 0x00000000)  returns 0x00 (0000ms, 87734ms total)
T0470 89022:647 JLINK_WriteReg(R8, 0x00000000)  returns 0x00 (0000ms, 87734ms total)
T0470 89022:647 JLINK_WriteReg(R9, 0x20000160)  returns 0x00 (0000ms, 87734ms total)
T0470 89022:647 JLINK_WriteReg(R10, 0x00000000)  returns 0x00 (0000ms, 87734ms total)
T0470 89022:647 JLINK_WriteReg(R11, 0x00000000)  returns 0x00 (0000ms, 87734ms total)
T0470 89022:647 JLINK_WriteReg(R12, 0x00000000)  returns 0x00 (0000ms, 87734ms total)
T0470 89022:647 JLINK_WriteReg(R13 (SP), 0x20001000)  returns 0x00 (0000ms, 87734ms total)
T0470 89022:647 JLINK_WriteReg(R14, 0x20000001)  returns 0x00 (0000ms, 87734ms total)
T0470 89022:647 JLINK_WriteReg(R15 (PC), 0x2000007C)  returns 0x00 (0000ms, 87734ms total)
T0470 89022:647 JLINK_WriteReg(XPSR, 0x01000000)  returns 0x00 (0000ms, 87734ms total)
T0470 89022:647 JLINK_WriteReg(MSP, 0x20001000)  returns 0x00 (0000ms, 87734ms total)
T0470 89022:647 JLINK_WriteReg(PSP, 0x20001000)  returns 0x00 (0000ms, 87734ms total)
T0470 89022:647 JLINK_WriteReg(CFBP, 0x00000000)  returns 0x00 (0000ms, 87734ms total)
T0470 89022:647 JLINK_SetBPEx(Addr = 0x20000000, Type = 0xFFFFFFF2)  returns 0x00000002 (0000ms, 87734ms total)
T0470 89022:647 JLINK_Go() -- CPU_ReadMem(4 bytes @ 0xE0001000) (0004ms, 87738ms total)
T0470 89022:651 JLINK_IsHalted()  returns FALSE (0001ms, 87739ms total)
T0470 89022:727 JLINK_IsHalted() -- CPU_ReadMem(2 bytes @ 0x20000000)  returns TRUE (0007ms, 87745ms total)
T0470 89022:734 JLINK_ReadReg(R15 (PC))  returns 0x20000000 (0000ms, 87738ms total)
T0470 89022:734 JLINK_ClrBPEx(BPHandle = 0x00000002)  returns 0x00 (0000ms, 87738ms total)
T0470 89022:734 JLINK_ReadReg(R0)  returns 0x00000000 (0000ms, 87738ms total)
T0470 89022:787 JLINK_WriteReg(R0, 0x00000001)  returns 0x00 (0000ms, 87738ms total)
T0470 89022:787 JLINK_WriteReg(R1, 0x044AA200)  returns 0x00 (0000ms, 87738ms total)
T0470 89022:787 JLINK_WriteReg(R2, 0x00000001)  returns 0x00 (0000ms, 87738ms total)
T0470 89022:787 JLINK_WriteReg(R3, 0x00000000)  returns 0x00 (0000ms, 87738ms total)
T0470 89022:787 JLINK_WriteReg(R4, 0x00000000)  returns 0x00 (0000ms, 87738ms total)
T0470 89022:787 JLINK_WriteReg(R5, 0x00000000)  returns 0x00 (0000ms, 87738ms total)
T0470 89022:787 JLINK_WriteReg(R6, 0x00000000)  returns 0x00 (0000ms, 87738ms total)
T0470 89022:787 JLINK_WriteReg(R7, 0x00000000)  returns 0x00 (0000ms, 87738ms total)
T0470 89022:787 JLINK_WriteReg(R8, 0x00000000)  returns 0x00 (0000ms, 87738ms total)
T0470 89022:787 JLINK_WriteReg(R9, 0x20000160)  returns 0x00 (0000ms, 87738ms total)
T0470 89022:787 JLINK_WriteReg(R10, 0x00000000)  returns 0x00 (0000ms, 87738ms total)
T0470 89022:787 JLINK_WriteReg(R11, 0x00000000)  returns 0x00 (0000ms, 87738ms total)
T0470 89022:787 JLINK_WriteReg(R12, 0x00000000)  returns 0x00 (0000ms, 87738ms total)
T0470 89022:787 JLINK_WriteReg(R13 (SP), 0x20001000)  returns 0x00 (0001ms, 87739ms total)
T0470 89022:788 JLINK_WriteReg(R14, 0x20000001)  returns 0x00 (0000ms, 87739ms total)
T0470 89022:788 JLINK_WriteReg(R15 (PC), 0x2000006A)  returns 0x00 (0000ms, 87739ms total)
T0470 89022:788 JLINK_WriteReg(XPSR, 0x01000000)  returns 0x00 (0000ms, 87739ms total)
T0470 89022:788 JLINK_WriteReg(MSP, 0x20001000)  returns 0x00 (0000ms, 87739ms total)
T0470 89022:788 JLINK_WriteReg(PSP, 0x20001000)  returns 0x00 (0000ms, 87739ms total)
T0470 89022:788 JLINK_WriteReg(CFBP, 0x00000000)  returns 0x00 (0000ms, 87739ms total)
T0470 89022:788 JLINK_SetBPEx(Addr = 0x20000000, Type = 0xFFFFFFF2)  returns 0x00000003 (0000ms, 87739ms total)
T0470 89022:788 JLINK_Go() -- CPU_ReadMem(4 bytes @ 0xE0001000) (0004ms, 87743ms total)
T0470 89022:792 JLINK_IsHalted() -- CPU_ReadMem(2 bytes @ 0x20000000)  returns TRUE (0008ms, 87751ms total)
T0470 89022:800 JLINK_ReadReg(R15 (PC))  returns 0x20000000 (0000ms, 87743ms total)
T0470 89022:800 JLINK_ClrBPEx(BPHandle = 0x00000003)  returns 0x00 (0000ms, 87743ms total)
T0470 89022:800 JLINK_ReadReg(R0)  returns 0x00000000 (0000ms, 87743ms total)
T0470 89022:816 JLINK_WriteMem(0x20000000, 0x0164 Bytes, ...) - Data: 00 BE 0A E0 0D 78 2D 06 68 40 08 24 40 00 00 D3 ... -- CPU_WriteMem(356 bytes @ 0x20000000)  returns 0x164 (0006ms, 87749ms total)
T0470 89022:822 JLINK_WriteReg(R0, 0x08000000)  returns 0x00 (0000ms, 87749ms total)
T0470 89022:822 JLINK_WriteReg(R1, 0x044AA200)  returns 0x00 (0000ms, 87749ms total)
T0470 89022:822 JLINK_WriteReg(R2, 0x00000002)  returns 0x00 (0000ms, 87749ms total)
T0470 89022:822 JLINK_WriteReg(R3, 0x00000000)  returns 0x00 (0000ms, 87749ms total)
T0470 89022:822 JLINK_WriteReg(R4, 0x00000000)  returns 0x00 (0000ms, 87749ms total)
T0470 89022:822 JLINK_WriteReg(R5, 0x00000000)  returns 0x00 (0000ms, 87749ms total)
T0470 89022:822 JLINK_WriteReg(R6, 0x00000000)  returns 0x00 (0000ms, 87749ms total)
T0470 89022:822 JLINK_WriteReg(R7, 0x00000000)  returns 0x00 (0000ms, 87749ms total)
T0470 89022:822 JLINK_WriteReg(R8, 0x00000000)  returns 0x00 (0000ms, 87749ms total)
T0470 89022:822 JLINK_WriteReg(R9, 0x20000160)  returns 0x00 (0001ms, 87750ms total)
T0470 89022:823 JLINK_WriteReg(R10, 0x00000000)  returns 0x00 (0000ms, 87750ms total)
T0470 89022:823 JLINK_WriteReg(R11, 0x00000000)  returns 0x00 (0000ms, 87750ms total)
T0470 89022:823 JLINK_WriteReg(R12, 0x00000000)  returns 0x00 (0000ms, 87750ms total)
T0470 89022:823 JLINK_WriteReg(R13 (SP), 0x20001000)  returns 0x00 (0000ms, 87750ms total)
T0470 89022:823 JLINK_WriteReg(R14, 0x20000001)  returns 0x00 (0000ms, 87750ms total)
T0470 89022:823 JLINK_WriteReg(R15 (PC), 0x20000038)  returns 0x00 (0000ms, 87750ms total)
T0470 89022:823 JLINK_WriteReg(XPSR, 0x01000000)  returns 0x00 (0000ms, 87750ms total)
T0470 89022:823 JLINK_WriteReg(MSP, 0x20001000)  returns 0x00 (0000ms, 87750ms total)
T0470 89022:823 JLINK_WriteReg(PSP, 0x20001000)  returns 0x00 (0000ms, 87750ms total)
T0470 89022:823 JLINK_WriteReg(CFBP, 0x00000000)  returns 0x00 (0000ms, 87750ms total)
T0470 89022:823 JLINK_SetBPEx(Addr = 0x20000000, Type = 0xFFFFFFF2) -- CPU_ReadMem(2 bytes @ 0x20000000)  returns 0x00000004 (0001ms, 87751ms total)
T0470 89022:824 JLINK_Go() -- CPU_WriteMem(2 bytes @ 0x20000000) -- CPU_ReadMem(4 bytes @ 0xE0001000) (0006ms, 87757ms total)
T0470 89022:830 JLINK_IsHalted() -- CPU_ReadMem(2 bytes @ 0x20000000)  returns TRUE (0008ms, 87765ms total)
T0470 89022:838 JLINK_ReadReg(R15 (PC))  returns 0x20000000 (0000ms, 87757ms total)
T0470 89022:838 JLINK_ClrBPEx(BPHandle = 0x00000004)  returns 0x00 (0000ms, 87757ms total)
T0470 89022:838 JLINK_ReadReg(R0)  returns 0x00000000 (0000ms, 87757ms total)
T0470 89022:839 JLINK_WriteMem(0x20000164, 0x029C Bytes, ...) - Data: D0 2C 00 20 45 01 00 08 05 5D 00 08 BF 46 00 08 ... -- CPU_WriteMem(668 bytes @ 0x20000164)  returns 0x29C (0009ms, 87766ms total)
T0470 89022:848 JLINK_WriteMem(0x20000400, 0x0164 Bytes, ...) - Data: 00 94 4F F0 00 0B 23 F0 00 43 50 EA 01 04 5E D0 ... -- CPU_WriteMem(356 bytes @ 0x20000400)  returns 0x164 (0006ms, 87772ms total)
T0470 89022:854 JLINK_WriteReg(R0, 0x08000000)  returns 0x00 (0000ms, 87772ms total)
T0470 89022:854 JLINK_WriteReg(R1, 0x00000400)  returns 0x00 (0000ms, 87772ms total)
T0470 89022:854 JLINK_WriteReg(R2, 0x20000164)  returns 0x00 (0000ms, 87772ms total)
T0470 89022:854 JLINK_WriteReg(R3, 0x00000000)  returns 0x00 (0000ms, 87772ms total)
T0470 89022:854 JLINK_WriteReg(R4, 0x00000000)  returns 0x00 (0001ms, 87773ms total)
T0470 89022:855 JLINK_WriteReg(R5, 0x00000000)  returns 0x00 (0000ms, 87773ms total)
T0470 89022:855 JLINK_WriteReg(R6, 0x00000000)  returns 0x00 (0000ms, 87773ms total)
T0470 89022:855 JLINK_WriteReg(R7, 0x00000000)  returns 0x00 (0000ms, 87773ms total)
T0470 89022:855 JLINK_WriteReg(R8, 0x00000000)  returns 0x00 (0000ms, 87773ms total)
T0470 89022:855 JLINK_WriteReg(R9, 0x20000160)  returns 0x00 (0000ms, 87773ms total)
T0470 89022:855 JLINK_WriteReg(R10, 0x00000000)  returns 0x00 (0000ms, 87773ms total)
T0470 89022:855 JLINK_WriteReg(R11, 0x00000000)  returns 0x00 (0000ms, 87773ms total)
T0470 89022:855 JLINK_WriteReg(R12, 0x00000000)  returns 0x00 (0000ms, 87773ms total)
T0470 89022:855 JLINK_WriteReg(R13 (SP), 0x20001000)  returns 0x00 (0000ms, 87773ms total)
T0470 89022:855 JLINK_WriteReg(R14, 0x20000001)  returns 0x00 (0000ms, 87773ms total)
T0470 89022:855 JLINK_WriteReg(R15 (PC), 0x200000F4)  returns 0x00 (0000ms, 87773ms total)
T0470 89022:855 JLINK_WriteReg(XPSR, 0x01000000)  returns 0x00 (0000ms, 87773ms total)
T0470 89022:855 JLINK_WriteReg(MSP, 0x20001000)  returns 0x00 (0000ms, 87773ms total)
T0470 89022:855 JLINK_WriteReg(PSP, 0x20001000)  returns 0x00 (0000ms, 87773ms total)
T0470 89022:855 JLINK_WriteReg(CFBP, 0x00000000)  returns 0x00 (0000ms, 87773ms total)
T0470 89022:855 JLINK_SetBPEx(Addr = 0x20000000, Type = 0xFFFFFFF2)  returns 0x00000005 (0001ms, 87774ms total)
T0470 89022:856 JLINK_Go() -- CPU_ReadMem(4 bytes @ 0xE0001000) (0004ms, 87778ms total)
T0470 89022:860 JLINK_IsHalted()  returns FALSE (0001ms, 87779ms total)
T0470 89022:871 JLINK_IsHalted()  returns FALSE (0000ms, 87778ms total)
T0470 89022:873 JLINK_IsHalted()  returns FALSE (0000ms, 87778ms total)
T0470 89022:875 JLINK_IsHalted()  returns FALSE (0000ms, 87778ms total)
T0470 89022:877 JLINK_IsHalted()  returns FALSE (0000ms, 87778ms total)
T0470 89022:879 JLINK_IsHalted()  returns FALSE (0000ms, 87778ms total)
T0470 89022:881 JLINK_IsHalted()  returns FALSE (0000ms, 87778ms total)
T0470 89022:883 JLINK_IsHalted()  returns FALSE (0000ms, 87778ms total)
T0470 89022:885 JLINK_IsHalted()  returns FALSE (0000ms, 87778ms total)
T0470 89022:887 JLINK_IsHalted()  returns FALSE (0000ms, 87778ms total)
T0470 89022:889 JLINK_IsHalted()  returns FALSE (0000ms, 87778ms total)
T0470 89022:891 JLINK_IsHalted() -- CPU_ReadMem(2 bytes @ 0x20000000)  returns TRUE (0007ms, 87785ms total)
T0470 89022:898 JLINK_ReadReg(R15 (PC))  returns 0x20000000 (0000ms, 87778ms total)
T0470 89022:898 JLINK_ClrBPEx(BPHandle = 0x00000005)  returns 0x00 (0000ms, 87778ms total)
T0470 89022:898 JLINK_ReadReg(R0)  returns 0x00000000 (0000ms, 87778ms total)
T0470 89022:898 JLINK_WriteMem(0x20000164, 0x029C Bytes, ...) - Data: 01 46 70 47 30 B5 0B 46 01 46 00 20 20 22 01 24 ... -- CPU_WriteMem(668 bytes @ 0x20000164)  returns 0x29C (0009ms, 87787ms total)
T0470 89022:907 JLINK_WriteMem(0x20000400, 0x0164 Bytes, ...) - Data: 03 01 40 EA D5 70 B6 19 6D 41 11 E0 6D 08 4F EA ... -- CPU_WriteMem(356 bytes @ 0x20000400)  returns 0x164 (0006ms, 87793ms total)
T0470 89022:913 JLINK_WriteReg(R0, 0x08000400)  returns 0x00 (0000ms, 87793ms total)
T0470 89022:913 JLINK_WriteReg(R1, 0x00000400)  returns 0x00 (0000ms, 87793ms total)
T0470 89022:913 JLINK_WriteReg(R2, 0x20000164)  returns 0x00 (0000ms, 87793ms total)
T0470 89022:913 JLINK_WriteReg(R3, 0x00000000)  returns 0x00 (0000ms, 87793ms total)
T0470 89022:913 JLINK_WriteReg(R4, 0x00000000)  returns 0x00 (0000ms, 87793ms total)
T0470 89022:913 JLINK_WriteReg(R5, 0x00000000)  returns 0x00 (0000ms, 87793ms total)
T0470 89022:913 JLINK_WriteReg(R6, 0x00000000)  returns 0x00 (0000ms, 87793ms total)
T0470 89022:913 JLINK_WriteReg(R7, 0x00000000)  returns 0x00 (0000ms, 87793ms total)
T0470 89022:913 JLINK_WriteReg(R8, 0x00000000)  returns 0x00 (0000ms, 87793ms total)
T0470 89022:913 JLINK_WriteReg(R9, 0x20000160)  returns 0x00 (0000ms, 87793ms total)
T0470 89022:913 JLINK_WriteReg(R10, 0x00000000)  returns 0x00 (0000ms, 87793ms total)
T0470 89022:913 JLINK_WriteReg(R11, 0x00000000)  returns 0x00 (0000ms, 87793ms total)
T0470 89022:913 JLINK_WriteReg(R12, 0x00000000)  returns 0x00 (0000ms, 87793ms total)
T0470 89022:913 JLINK_WriteReg(R13 (SP), 0x20001000)  returns 0x00 (0000ms, 87793ms total)
T0470 89022:913 JLINK_WriteReg(R14, 0x20000001)  returns 0x00 (0000ms, 87793ms total)
T0470 89022:913 JLINK_WriteReg(R15 (PC), 0x200000F4)  returns 0x00 (0000ms, 87793ms total)
T0470 89022:913 JLINK_WriteReg(XPSR, 0x01000000)  returns 0x00 (0000ms, 87793ms total)
T0470 89022:913 JLINK_WriteReg(MSP, 0x20001000)  returns 0x00 (0000ms, 87793ms total)
T0470 89022:913 JLINK_WriteReg(PSP, 0x20001000)  returns 0x00 (0000ms, 87793ms total)
T0470 89022:913 JLINK_WriteReg(CFBP, 0x00000000)  returns 0x00 (0000ms, 87793ms total)
T0470 89022:913 JLINK_SetBPEx(Addr = 0x20000000, Type = 0xFFFFFFF2)  returns 0x00000006 (0000ms, 87793ms total)
T0470 89022:913 JLINK_Go() -- CPU_ReadMem(4 bytes @ 0xE0001000) (0004ms, 87797ms total)
T0470 89022:917 JLINK_IsHalted()  returns FALSE (0000ms, 87797ms total)
T0470 89022:919 JLINK_IsHalted()  returns FALSE (0000ms, 87797ms total)
T0470 89022:921 JLINK_IsHalted()  returns FALSE (0000ms, 87797ms total)
T0470 89022:923 JLINK_IsHalted()  returns FALSE (0000ms, 87797ms total)
T0470 89022:925 JLINK_IsHalted()  returns FALSE (0000ms, 87797ms total)
T0470 89022:927 JLINK_IsHalted()  returns FALSE (0000ms, 87797ms total)
T0470 89022:929 JLINK_IsHalted()  returns FALSE (0000ms, 87797ms total)
T0470 89022:931 JLINK_IsHalted()  returns FALSE (0000ms, 87797ms total)
T0470 89022:933 JLINK_IsHalted()  returns FALSE (0000ms, 87797ms total)
T0470 89022:935 JLINK_IsHalted()  returns FALSE (0000ms, 87797ms total)
T0470 89022:937 JLINK_IsHalted()  returns FALSE (0000ms, 87797ms total)
T0470 89022:939 JLINK_IsHalted()  returns FALSE (0000ms, 87797ms total)
T0470 89022:941 JLINK_IsHalted()  returns FALSE (0000ms, 87797ms total)
T0470 89022:943 JLINK_IsHalted()  returns FALSE (0000ms, 87797ms total)
T0470 89022:945 JLINK_IsHalted()  returns FALSE (0000ms, 87797ms total)
T0470 89022:947 JLINK_IsHalted()  returns FALSE (0000ms, 87797ms total)
T0470 89022:949 JLINK_IsHalted() -- CPU_ReadMem(2 bytes @ 0x20000000)  returns TRUE (0007ms, 87804ms total)
T0470 89022:956 JLINK_ReadReg(R15 (PC))  returns 0x20000000 (0000ms, 87797ms total)
T0470 89022:956 JLINK_ClrBPEx(BPHandle = 0x00000006)  returns 0x00 (0000ms, 87797ms total)
T0470 89022:956 JLINK_ReadReg(R0)  returns 0x00000000 (0000ms, 87797ms total)
T0470 89022:956 JLINK_WriteMem(0x20000164, 0x029C Bytes, ...) - Data: 40 F2 33 43 9A 42 A2 F2 33 42 02 DC 52 42 FF F7 ... -- CPU_WriteMem(668 bytes @ 0x20000164)  returns 0x29C (0010ms, 87807ms total)
T0470 89022:966 JLINK_WriteMem(0x20000400, 0x0164 Bytes, ...) - Data: 29 D0 60 68 03 28 26 D0 60 68 04 28 23 D0 60 68 ... -- CPU_WriteMem(356 bytes @ 0x20000400)  returns 0x164 (0005ms, 87812ms total)
T0470 89022:971 JLINK_WriteReg(R0, 0x08000800)  returns 0x00 (0000ms, 87812ms total)
T0470 89022:971 JLINK_WriteReg(R1, 0x00000400)  returns 0x00 (0000ms, 87812ms total)
T0470 89022:971 JLINK_WriteReg(R2, 0x20000164)  returns 0x00 (0000ms, 87812ms total)
T0470 89022:971 JLINK_WriteReg(R3, 0x00000000)  returns 0x00 (0000ms, 87812ms total)
T0470 89022:971 JLINK_WriteReg(R4, 0x00000000)  returns 0x00 (0000ms, 87812ms total)
T0470 89022:971 JLINK_WriteReg(R5, 0x00000000)  returns 0x00 (0000ms, 87812ms total)
T0470 89022:971 JLINK_WriteReg(R6, 0x00000000)  returns 0x00 (0000ms, 87812ms total)
T0470 89022:971 JLINK_WriteReg(R7, 0x00000000)  returns 0x00 (0000ms, 87812ms total)
T0470 89022:971 JLINK_WriteReg(R8, 0x00000000)  returns 0x00 (0000ms, 87812ms total)
T0470 89022:971 JLINK_WriteReg(R9, 0x20000160)  returns 0x00 (0000ms, 87812ms total)
T0470 89022:971 JLINK_WriteReg(R10, 0x00000000)  returns 0x00 (0000ms, 87812ms total)
T0470 89022:971 JLINK_WriteReg(R11, 0x00000000)  returns 0x00 (0000ms, 87812ms total)
T0470 89022:971 JLINK_WriteReg(R12, 0x00000000)  returns 0x00 (0000ms, 87812ms total)
T0470 89022:971 JLINK_WriteReg(R13 (SP), 0x20001000)  returns 0x00 (0000ms, 87812ms total)
T0470 89022:972 JLINK_WriteReg(R14, 0x20000001)  returns 0x00 (0000ms, 87813ms total)
T0470 89022:972 JLINK_WriteReg(R15 (PC), 0x200000F4)  returns 0x00 (0000ms, 87813ms total)
T0470 89022:972 JLINK_WriteReg(XPSR, 0x01000000)  returns 0x00 (0000ms, 87813ms total)
T0470 89022:972 JLINK_WriteReg(MSP, 0x20001000)  returns 0x00 (0000ms, 87813ms total)
T0470 89022:972 JLINK_WriteReg(PSP, 0x20001000)  returns 0x00 (0000ms, 87813ms total)
T0470 89022:972 JLINK_WriteReg(CFBP, 0x00000000)  returns 0x00 (0000ms, 87813ms total)
T0470 89022:972 JLINK_SetBPEx(Addr = 0x20000000, Type = 0xFFFFFFF2)  returns 0x00000007 (0000ms, 87813ms total)
T0470 89022:972 JLINK_Go() -- CPU_ReadMem(4 bytes @ 0xE0001000) (0003ms, 87816ms total)
T0470 89022:975 JLINK_IsHalted()  returns FALSE (0001ms, 87817ms total)
T0470 89022:980 JLINK_IsHalted()  returns FALSE (0000ms, 87816ms total)
T0470 89022:982 JLINK_IsHalted()  returns FALSE (0000ms, 87816ms total)
T0470 89022:984 JLINK_IsHalted()  returns FALSE (0000ms, 87816ms total)
T0470 89022:986 JLINK_IsHalted()  returns FALSE (0000ms, 87816ms total)
T0470 89022:988 JLINK_IsHalted()  returns FALSE (0000ms, 87816ms total)
T0470 89022:990 JLINK_IsHalted()  returns FALSE (0000ms, 87816ms total)
T0470 89022:992 JLINK_IsHalted()  returns FALSE (0000ms, 87816ms total)
T0470 89022:994 JLINK_IsHalted()  returns FALSE (0000ms, 87816ms total)
T0470 89022:996 JLINK_IsHalted()  returns FALSE (0000ms, 87816ms total)
T0470 89022:998 JLINK_IsHalted()  returns FALSE (0000ms, 87816ms total)
T0470 89023:000 JLINK_IsHalted()  returns FALSE (0000ms, 87816ms total)
T0470 89023:002 JLINK_IsHalted()  returns FALSE (0000ms, 87816ms total)
T0470 89023:004 JLINK_IsHalted()  returns FALSE (0000ms, 87816ms total)
T0470 89023:006 JLINK_IsHalted() -- CPU_ReadMem(2 bytes @ 0x20000000)  returns TRUE (0007ms, 87823ms total)
T0470 89023:013 JLINK_ReadReg(R15 (PC))  returns 0x20000000 (0000ms, 87816ms total)
T0470 89023:013 JLINK_ClrBPEx(BPHandle = 0x00000007)  returns 0x00 (0000ms, 87816ms total)
T0470 89023:013 JLINK_ReadReg(R0)  returns 0x00000000 (0000ms, 87816ms total)
T0470 89023:014 JLINK_WriteMem(0x20000164, 0x029C Bytes, ...) - Data: 07 21 91 40 88 43 22 78 02 EB 42 02 A1 68 91 40 ... -- CPU_WriteMem(668 bytes @ 0x20000164)  returns 0x29C (0010ms, 87826ms total)
T0470 89023:024 JLINK_WriteMem(0x20000400, 0x0164 Bytes, ...) - Data: 00 F0 10 00 00 28 73 D1 00 2F 7E D1 A0 6A 20 F4 ... -- CPU_WriteMem(356 bytes @ 0x20000400)  returns 0x164 (0005ms, 87831ms total)
T0470 89023:029 JLINK_WriteReg(R0, 0x08000C00)  returns 0x00 (0000ms, 87831ms total)
T0470 89023:029 JLINK_WriteReg(R1, 0x00000400)  returns 0x00 (0000ms, 87831ms total)
T0470 89023:029 JLINK_WriteReg(R2, 0x20000164)  returns 0x00 (0000ms, 87831ms total)
T0470 89023:029 JLINK_WriteReg(R3, 0x00000000)  returns 0x00 (0000ms, 87831ms total)
T0470 89023:029 JLINK_WriteReg(R4, 0x00000000)  returns 0x00 (0000ms, 87831ms total)
T0470 89023:029 JLINK_WriteReg(R5, 0x00000000)  returns 0x00 (0000ms, 87831ms total)
T0470 89023:029 JLINK_WriteReg(R6, 0x00000000)  returns 0x00 (0000ms, 87831ms total)
T0470 89023:029 JLINK_WriteReg(R7, 0x00000000)  returns 0x00 (0000ms, 87831ms total)
T0470 89023:029 JLINK_WriteReg(R8, 0x00000000)  returns 0x00 (0000ms, 87831ms total)
T0470 89023:030 JLINK_WriteReg(R9, 0x20000160)  returns 0x00 (0000ms, 87832ms total)
T0470 89023:030 JLINK_WriteReg(R10, 0x00000000)  returns 0x00 (0000ms, 87832ms total)
T0470 89023:030 JLINK_WriteReg(R11, 0x00000000)  returns 0x00 (0000ms, 87832ms total)
T0470 89023:030 JLINK_WriteReg(R12, 0x00000000)  returns 0x00 (0000ms, 87832ms total)
T0470 89023:030 JLINK_WriteReg(R13 (SP), 0x20001000)  returns 0x00 (0000ms, 87832ms total)
T0470 89023:030 JLINK_WriteReg(R14, 0x20000001)  returns 0x00 (0000ms, 87832ms total)
T0470 89023:030 JLINK_WriteReg(R15 (PC), 0x200000F4)  returns 0x00 (0000ms, 87832ms total)
T0470 89023:030 JLINK_WriteReg(XPSR, 0x01000000)  returns 0x00 (0000ms, 87832ms total)
T0470 89023:030 JLINK_WriteReg(MSP, 0x20001000)  returns 0x00 (0000ms, 87832ms total)
T0470 89023:030 JLINK_WriteReg(PSP, 0x20001000)  returns 0x00 (0000ms, 87832ms total)
T0470 89023:030 JLINK_WriteReg(CFBP, 0x00000000)  returns 0x00 (0000ms, 87832ms total)
T0470 89023:030 JLINK_SetBPEx(Addr = 0x20000000, Type = 0xFFFFFFF2)  returns 0x00000008 (0000ms, 87832ms total)
T0470 89023:030 JLINK_Go() -- CPU_ReadMem(4 bytes @ 0xE0001000) (0004ms, 87836ms total)
T0470 89023:034 JLINK_IsHalted()  returns FALSE (0000ms, 87836ms total)
T0470 89023:043 JLINK_IsHalted()  returns FALSE (0000ms, 87836ms total)
T0470 89023:045 JLINK_IsHalted()  returns FALSE (0001ms, 87837ms total)
T0470 89023:048 JLINK_IsHalted()  returns FALSE (0000ms, 87836ms total)
T0470 89023:050 JLINK_IsHalted()  returns FALSE (0000ms, 87836ms total)
T0470 89023:052 JLINK_IsHalted()  returns FALSE (0000ms, 87836ms total)
T0470 89023:054 JLINK_IsHalted()  returns FALSE (0000ms, 87836ms total)
T0470 89023:056 JLINK_IsHalted()  returns FALSE (0000ms, 87836ms total)
T0470 89023:058 JLINK_IsHalted()  returns FALSE (0000ms, 87836ms total)
T0470 89023:060 JLINK_IsHalted()  returns FALSE (0000ms, 87836ms total)
T0470 89023:062 JLINK_IsHalted()  returns FALSE (0000ms, 87836ms total)
T0470 89023:064 JLINK_IsHalted()  returns FALSE (0000ms, 87836ms total)
T0470 89023:066 JLINK_IsHalted() -- CPU_ReadMem(2 bytes @ 0x20000000)  returns TRUE (0007ms, 87843ms total)
T0470 89023:073 JLINK_ReadReg(R15 (PC))  returns 0x20000000 (0000ms, 87836ms total)
T0470 89023:073 JLINK_ClrBPEx(BPHandle = 0x00000008)  returns 0x00 (0000ms, 87836ms total)
T0470 89023:073 JLINK_ReadReg(R0)  returns 0x00000000 (0000ms, 87836ms total)
T0470 89023:076 JLINK_WriteMem(0x20000164, 0x029C Bytes, ...) - Data: 10 B5 86 B0 04 46 00 20 02 90 03 90 04 90 05 90 ... -- CPU_WriteMem(668 bytes @ 0x20000164)  returns 0x29C (0009ms, 87845ms total)
T0470 89023:085 JLINK_WriteMem(0x20000400, 0x0164 Bytes, ...) - Data: 40 F4 80 70 A0 62 3E 49 20 68 88 42 09 D1 3B 48 ... -- CPU_WriteMem(356 bytes @ 0x20000400)  returns 0x164 (0006ms, 87851ms total)
T0470 89023:091 JLINK_WriteReg(R0, 0x08001000)  returns 0x00 (0000ms, 87851ms total)
T0470 89023:091 JLINK_WriteReg(R1, 0x00000400)  returns 0x00 (0000ms, 87851ms total)
T0470 89023:091 JLINK_WriteReg(R2, 0x20000164)  returns 0x00 (0000ms, 87851ms total)
T0470 89023:091 JLINK_WriteReg(R3, 0x00000000)  returns 0x00 (0000ms, 87851ms total)
T0470 89023:091 JLINK_WriteReg(R4, 0x00000000)  returns 0x00 (0000ms, 87851ms total)
T0470 89023:091 JLINK_WriteReg(R5, 0x00000000)  returns 0x00 (0000ms, 87851ms total)
T0470 89023:091 JLINK_WriteReg(R6, 0x00000000)  returns 0x00 (0000ms, 87851ms total)
T0470 89023:091 JLINK_WriteReg(R7, 0x00000000)  returns 0x00 (0000ms, 87851ms total)
T0470 89023:091 JLINK_WriteReg(R8, 0x00000000)  returns 0x00 (0000ms, 87851ms total)
T0470 89023:091 JLINK_WriteReg(R9, 0x20000160)  returns 0x00 (0000ms, 87851ms total)
T0470 89023:091 JLINK_WriteReg(R10, 0x00000000)  returns 0x00 (0000ms, 87851ms total)
T0470 89023:091 JLINK_WriteReg(R11, 0x00000000)  returns 0x00 (0000ms, 87851ms total)
T0470 89023:091 JLINK_WriteReg(R12, 0x00000000)  returns 0x00 (0000ms, 87851ms total)
T0470 89023:091 JLINK_WriteReg(R13 (SP), 0x20001000)  returns 0x00 (0000ms, 87851ms total)
T0470 89023:091 JLINK_WriteReg(R14, 0x20000001)  returns 0x00 (0000ms, 87851ms total)
T0470 89023:091 JLINK_WriteReg(R15 (PC), 0x200000F4)  returns 0x00 (0000ms, 87851ms total)
T0470 89023:091 JLINK_WriteReg(XPSR, 0x01000000)  returns 0x00 (0000ms, 87851ms total)
T0470 89023:091 JLINK_WriteReg(MSP, 0x20001000)  returns 0x00 (0000ms, 87851ms total)
T0470 89023:091 JLINK_WriteReg(PSP, 0x20001000)  returns 0x00 (0000ms, 87851ms total)
T0470 89023:091 JLINK_WriteReg(CFBP, 0x00000000)  returns 0x00 (0000ms, 87851ms total)
T0470 89023:091 JLINK_SetBPEx(Addr = 0x20000000, Type = 0xFFFFFFF2)  returns 0x00000009 (0000ms, 87851ms total)
T0470 89023:091 JLINK_Go() -- CPU_ReadMem(4 bytes @ 0xE0001000) (0004ms, 87855ms total)
T0470 89023:095 JLINK_IsHalted()  returns FALSE (0000ms, 87855ms total)
T0470 89023:100 JLINK_IsHalted()  returns FALSE (0001ms, 87856ms total)
T0470 89023:103 JLINK_IsHalted()  returns FALSE (0001ms, 87856ms total)
T0470 89023:106 JLINK_IsHalted()  returns FALSE (0000ms, 87855ms total)
T0470 89023:108 JLINK_IsHalted()  returns FALSE (0000ms, 87855ms total)
T0470 89023:110 JLINK_IsHalted()  returns FALSE (0001ms, 87856ms total)
T0470 89023:113 JLINK_IsHalted()  returns FALSE (0000ms, 87855ms total)
T0470 89023:115 JLINK_IsHalted()  returns FALSE (0000ms, 87855ms total)
T0470 89023:117 JLINK_IsHalted()  returns FALSE (0001ms, 87856ms total)
T0470 89023:120 JLINK_IsHalted()  returns FALSE (0001ms, 87856ms total)
T0470 89023:123 JLINK_IsHalted()  returns FALSE (0001ms, 87856ms total)
T0470 89023:126 JLINK_IsHalted() -- CPU_ReadMem(2 bytes @ 0x20000000)  returns TRUE (0007ms, 87862ms total)
T0470 89023:133 JLINK_ReadReg(R15 (PC))  returns 0x20000000 (0000ms, 87855ms total)
T0470 89023:133 JLINK_ClrBPEx(BPHandle = 0x00000009)  returns 0x00 (0000ms, 87855ms total)
T0470 89023:133 JLINK_ReadReg(R0)  returns 0x00000000 (0000ms, 87855ms total)
T0470 89023:134 JLINK_WriteMem(0x20000164, 0x029C Bytes, ...) - Data: 3E D0 B4 F5 40 7F 3B D0 B4 F5 80 6F 38 D0 B4 F5 ... -- CPU_WriteMem(668 bytes @ 0x20000164)  returns 0x29C (0010ms, 87865ms total)
T0470 89023:144 JLINK_WriteMem(0x20000400, 0x0164 Bytes, ...) - Data: 00 50 11 49 C8 61 08 46 C0 69 00 F0 00 50 01 90 ... -- CPU_WriteMem(356 bytes @ 0x20000400)  returns 0x164 (0005ms, 87870ms total)
T0470 89023:149 JLINK_WriteReg(R0, 0x08001400)  returns 0x00 (0000ms, 87870ms total)
T0470 89023:149 JLINK_WriteReg(R1, 0x00000400)  returns 0x00 (0000ms, 87870ms total)
T0470 89023:149 JLINK_WriteReg(R2, 0x20000164)  returns 0x00 (0000ms, 87870ms total)
T0470 89023:149 JLINK_WriteReg(R3, 0x00000000)  returns 0x00 (0000ms, 87870ms total)
T0470 89023:149 JLINK_WriteReg(R4, 0x00000000)  returns 0x00 (0000ms, 87870ms total)
T0470 89023:149 JLINK_WriteReg(R5, 0x00000000)  returns 0x00 (0000ms, 87870ms total)
T0470 89023:149 JLINK_WriteReg(R6, 0x00000000)  returns 0x00 (0000ms, 87870ms total)
T0470 89023:149 JLINK_WriteReg(R7, 0x00000000)  returns 0x00 (0000ms, 87870ms total)
T0470 89023:150 JLINK_WriteReg(R8, 0x00000000)  returns 0x00 (0000ms, 87871ms total)
T0470 89023:150 JLINK_WriteReg(R9, 0x20000160)  returns 0x00 (0000ms, 87871ms total)
T0470 89023:150 JLINK_WriteReg(R10, 0x00000000)  returns 0x00 (0000ms, 87871ms total)
T0470 89023:150 JLINK_WriteReg(R11, 0x00000000)  returns 0x00 (0000ms, 87871ms total)
T0470 89023:150 JLINK_WriteReg(R12, 0x00000000)  returns 0x00 (0000ms, 87871ms total)
T0470 89023:150 JLINK_WriteReg(R13 (SP), 0x20001000)  returns 0x00 (0000ms, 87871ms total)
T0470 89023:150 JLINK_WriteReg(R14, 0x20000001)  returns 0x00 (0000ms, 87871ms total)
T0470 89023:150 JLINK_WriteReg(R15 (PC), 0x200000F4)  returns 0x00 (0000ms, 87871ms total)
T0470 89023:150 JLINK_WriteReg(XPSR, 0x01000000)  returns 0x00 (0000ms, 87871ms total)
T0470 89023:150 JLINK_WriteReg(MSP, 0x20001000)  returns 0x00 (0000ms, 87871ms total)
T0470 89023:150 JLINK_WriteReg(PSP, 0x20001000)  returns 0x00 (0000ms, 87871ms total)
T0470 89023:150 JLINK_WriteReg(CFBP, 0x00000000)  returns 0x00 (0000ms, 87871ms total)
T0470 89023:150 JLINK_SetBPEx(Addr = 0x20000000, Type = 0xFFFFFFF2)  returns 0x0000000A (0000ms, 87871ms total)
T0470 89023:150 JLINK_Go() -- CPU_ReadMem(4 bytes @ 0xE0001000) (0004ms, 87875ms total)
T0470 89023:154 JLINK_IsHalted()  returns FALSE (0000ms, 87875ms total)
T0470 89023:160 JLINK_IsHalted()  returns FALSE (0000ms, 87875ms total)
T0470 89023:162 JLINK_IsHalted()  returns FALSE (0000ms, 87875ms total)
T0470 89023:164 JLINK_IsHalted()  returns FALSE (0000ms, 87875ms total)
T0470 89023:166 JLINK_IsHalted()  returns FALSE (0000ms, 87875ms total)
T0470 89023:168 JLINK_IsHalted()  returns FALSE (0000ms, 87875ms total)
T0470 89023:170 JLINK_IsHalted()  returns FALSE (0000ms, 87875ms total)
T0470 89023:172 JLINK_IsHalted()  returns FALSE (0000ms, 87875ms total)
T0470 89023:174 JLINK_IsHalted()  returns FALSE (0000ms, 87875ms total)
T0470 89023:176 JLINK_IsHalted()  returns FALSE (0000ms, 87875ms total)
T0470 89023:178 JLINK_IsHalted()  returns FALSE (0000ms, 87875ms total)
T0470 89023:180 JLINK_IsHalted()  returns FALSE (0000ms, 87875ms total)
T0470 89023:182 JLINK_IsHalted()  returns FALSE (0000ms, 87875ms total)
T0470 89023:184 JLINK_IsHalted()  returns FALSE (0000ms, 87875ms total)
T0470 89023:186 JLINK_IsHalted() -- CPU_ReadMem(2 bytes @ 0x20000000)  returns TRUE (0006ms, 87881ms total)
T0470 89023:193 JLINK_ReadReg(R15 (PC))  returns 0x20000000 (0000ms, 87875ms total)
T0470 89023:193 JLINK_ClrBPEx(BPHandle = 0x0000000A)  returns 0x00 (0000ms, 87875ms total)
T0470 89023:193 JLINK_ReadReg(R0)  returns 0x00000000 (0000ms, 87875ms total)
T0470 89023:194 JLINK_WriteMem(0x20000164, 0x029C Bytes, ...) - Data: 02 00 21 68 48 60 01 20 20 71 00 BF 00 20 60 71 ... -- CPU_WriteMem(668 bytes @ 0x20000164)  returns 0x29C (0009ms, 87884ms total)
T0470 89023:203 JLINK_WriteMem(0x20000400, 0x0164 Bytes, ...) - Data: C5 F8 10 80 03 E0 08 20 01 90 C5 F8 14 80 03 E0 ... -- CPU_WriteMem(356 bytes @ 0x20000400)  returns 0x164 (0005ms, 87889ms total)
T0470 89023:208 JLINK_WriteReg(R0, 0x08001800)  returns 0x00 (0000ms, 87889ms total)
T0470 89023:208 JLINK_WriteReg(R1, 0x00000400)  returns 0x00 (0000ms, 87889ms total)
T0470 89023:208 JLINK_WriteReg(R2, 0x20000164)  returns 0x00 (0000ms, 87889ms total)
T0470 89023:208 JLINK_WriteReg(R3, 0x00000000)  returns 0x00 (0000ms, 87889ms total)
T0470 89023:208 JLINK_WriteReg(R4, 0x00000000)  returns 0x00 (0000ms, 87889ms total)
T0470 89023:208 JLINK_WriteReg(R5, 0x00000000)  returns 0x00 (0000ms, 87889ms total)
T0470 89023:208 JLINK_WriteReg(R6, 0x00000000)  returns 0x00 (0000ms, 87889ms total)
T0470 89023:208 JLINK_WriteReg(R7, 0x00000000)  returns 0x00 (0000ms, 87889ms total)
T0470 89023:208 JLINK_WriteReg(R8, 0x00000000)  returns 0x00 (0000ms, 87889ms total)
T0470 89023:208 JLINK_WriteReg(R9, 0x20000160)  returns 0x00 (0001ms, 87890ms total)
T0470 89023:209 JLINK_WriteReg(R10, 0x00000000)  returns 0x00 (0000ms, 87890ms total)
T0470 89023:209 JLINK_WriteReg(R11, 0x00000000)  returns 0x00 (0000ms, 87890ms total)
T0470 89023:209 JLINK_WriteReg(R12, 0x00000000)  returns 0x00 (0000ms, 87890ms total)
T0470 89023:209 JLINK_WriteReg(R13 (SP), 0x20001000)  returns 0x00 (0000ms, 87890ms total)
T0470 89023:209 JLINK_WriteReg(R14, 0x20000001)  returns 0x00 (0000ms, 87890ms total)
T0470 89023:209 JLINK_WriteReg(R15 (PC), 0x200000F4)  returns 0x00 (0000ms, 87890ms total)
T0470 89023:209 JLINK_WriteReg(XPSR, 0x01000000)  returns 0x00 (0000ms, 87890ms total)
T0470 89023:209 JLINK_WriteReg(MSP, 0x20001000)  returns 0x00 (0000ms, 87890ms total)
T0470 89023:209 JLINK_WriteReg(PSP, 0x20001000)  returns 0x00 (0000ms, 87890ms total)
T0470 89023:209 JLINK_WriteReg(CFBP, 0x00000000)  returns 0x00 (0000ms, 87890ms total)
T0470 89023:209 JLINK_SetBPEx(Addr = 0x20000000, Type = 0xFFFFFFF2)  returns 0x0000000B (0000ms, 87890ms total)
T0470 89023:209 JLINK_Go() -- CPU_ReadMem(4 bytes @ 0xE0001000) (0004ms, 87894ms total)
T0470 89023:213 JLINK_IsHalted()  returns FALSE (0001ms, 87895ms total)
T0470 89023:220 JLINK_IsHalted()  returns FALSE (0000ms, 87894ms total)
T0470 89023:222 JLINK_IsHalted()  returns FALSE (0000ms, 87894ms total)
T0470 89023:224 JLINK_IsHalted()  returns FALSE (0000ms, 87894ms total)
T0470 89023:226 JLINK_IsHalted()  returns FALSE (0000ms, 87894ms total)
T0470 89023:228 JLINK_IsHalted()  returns FALSE (0000ms, 87894ms total)
T0470 89023:230 JLINK_IsHalted()  returns FALSE (0000ms, 87894ms total)
T0470 89023:232 JLINK_IsHalted()  returns FALSE (0000ms, 87894ms total)
T0470 89023:234 JLINK_IsHalted()  returns FALSE (0000ms, 87894ms total)
T0470 89023:236 JLINK_IsHalted()  returns FALSE (0000ms, 87894ms total)
T0470 89023:238 JLINK_IsHalted()  returns FALSE (0000ms, 87894ms total)
T0470 89023:240 JLINK_IsHalted()  returns FALSE (0000ms, 87894ms total)
T0470 89023:242 JLINK_IsHalted()  returns FALSE (0000ms, 87894ms total)
T0470 89023:244 JLINK_IsHalted() -- CPU_ReadMem(2 bytes @ 0x20000000)  returns TRUE (0007ms, 87901ms total)
T0470 89023:251 JLINK_ReadReg(R15 (PC))  returns 0x20000000 (0000ms, 87894ms total)
T0470 89023:251 JLINK_ClrBPEx(BPHandle = 0x0000000B)  returns 0x00 (0000ms, 87894ms total)
T0470 89023:251 JLINK_ReadReg(R0)  returns 0x00000000 (0000ms, 87894ms total)
T0470 89023:252 JLINK_WriteMem(0x20000164, 0x029C Bytes, ...) - Data: 00 68 30 43 26 49 0C 31 08 60 06 E0 24 48 0C 30 ... -- CPU_WriteMem(668 bytes @ 0x20000164)  returns 0x29C (0010ms, 87904ms total)
T0470 89023:262 JLINK_WriteMem(0x20000400, 0x0164 Bytes, ...) - Data: 2E 2E 2F 44 72 69 76 65 72 73 2F 53 54 4D 33 32 ... -- CPU_WriteMem(356 bytes @ 0x20000400)  returns 0x164 (0006ms, 87910ms total)
T0470 89023:268 JLINK_WriteReg(R0, 0x08001C00)  returns 0x00 (0000ms, 87910ms total)
T0470 89023:268 JLINK_WriteReg(R1, 0x00000400)  returns 0x00 (0000ms, 87910ms total)
T0470 89023:268 JLINK_WriteReg(R2, 0x20000164)  returns 0x00 (0000ms, 87910ms total)
T0470 89023:268 JLINK_WriteReg(R3, 0x00000000)  returns 0x00 (0000ms, 87910ms total)
T0470 89023:268 JLINK_WriteReg(R4, 0x00000000)  returns 0x00 (0000ms, 87910ms total)
T0470 89023:268 JLINK_WriteReg(R5, 0x00000000)  returns 0x00 (0000ms, 87910ms total)
T0470 89023:268 JLINK_WriteReg(R6, 0x00000000)  returns 0x00 (0000ms, 87910ms total)
T0470 89023:268 JLINK_WriteReg(R7, 0x00000000)  returns 0x00 (0000ms, 87910ms total)
T0470 89023:268 JLINK_WriteReg(R8, 0x00000000)  returns 0x00 (0000ms, 87910ms total)
T0470 89023:268 JLINK_WriteReg(R9, 0x20000160)  returns 0x00 (0000ms, 87910ms total)
T0470 89023:268 JLINK_WriteReg(R10, 0x00000000)  returns 0x00 (0000ms, 87910ms total)
T0470 89023:268 JLINK_WriteReg(R11, 0x00000000)  returns 0x00 (0000ms, 87910ms total)
T0470 89023:268 JLINK_WriteReg(R12, 0x00000000)  returns 0x00 (0000ms, 87910ms total)
T0470 89023:268 JLINK_WriteReg(R13 (SP), 0x20001000)  returns 0x00 (0000ms, 87910ms total)
T0470 89023:268 JLINK_WriteReg(R14, 0x20000001)  returns 0x00 (0000ms, 87910ms total)
T0470 89023:268 JLINK_WriteReg(R15 (PC), 0x200000F4)  returns 0x00 (0000ms, 87910ms total)
T0470 89023:268 JLINK_WriteReg(XPSR, 0x01000000)  returns 0x00 (0001ms, 87911ms total)
T0470 89023:269 JLINK_WriteReg(MSP, 0x20001000)  returns 0x00 (0000ms, 87911ms total)
T0470 89023:269 JLINK_WriteReg(PSP, 0x20001000)  returns 0x00 (0000ms, 87911ms total)
T0470 89023:269 JLINK_WriteReg(CFBP, 0x00000000)  returns 0x00 (0000ms, 87911ms total)
T0470 89023:269 JLINK_SetBPEx(Addr = 0x20000000, Type = 0xFFFFFFF2)  returns 0x0000000C (0000ms, 87911ms total)
T0470 89023:269 JLINK_Go() -- CPU_ReadMem(4 bytes @ 0xE0001000) (0004ms, 87915ms total)
T0470 89023:273 JLINK_IsHalted()  returns FALSE (0001ms, 87916ms total)
T0470 89023:276 JLINK_IsHalted()  returns FALSE (0001ms, 87916ms total)
T0470 89023:279 JLINK_IsHalted()  returns FALSE (0000ms, 87915ms total)
T0470 89023:281 JLINK_IsHalted()  returns FALSE (0000ms, 87915ms total)
T0470 89023:283 JLINK_IsHalted()  returns FALSE (0000ms, 87915ms total)
T0470 89023:285 JLINK_IsHalted()  returns FALSE (0000ms, 87915ms total)
T0470 89023:287 JLINK_IsHalted()  returns FALSE (0000ms, 87915ms total)
T0470 89023:289 JLINK_IsHalted()  returns FALSE (0000ms, 87915ms total)
T0470 89023:291 JLINK_IsHalted()  returns FALSE (0000ms, 87915ms total)
T0470 89023:293 JLINK_IsHalted()  returns FALSE (0000ms, 87915ms total)
T0470 89023:295 JLINK_IsHalted()  returns FALSE (0000ms, 87915ms total)
T0470 89023:300 JLINK_IsHalted()  returns FALSE (0000ms, 87915ms total)
T0470 89023:302 JLINK_IsHalted()  returns FALSE (0000ms, 87915ms total)
T0470 89023:304 JLINK_IsHalted() -- CPU_ReadMem(2 bytes @ 0x20000000)  returns TRUE (0007ms, 87922ms total)
T0470 89023:311 JLINK_ReadReg(R15 (PC))  returns 0x20000000 (0000ms, 87915ms total)
T0470 89023:311 JLINK_ClrBPEx(BPHandle = 0x0000000C)  returns 0x00 (0000ms, 87915ms total)
T0470 89023:311 JLINK_ReadReg(R0)  returns 0x00000000 (0000ms, 87915ms total)
T0470 89023:312 JLINK_WriteMem(0x20000164, 0x029C Bytes, ...) - Data: 46 31 78 78 5F 48 41 4C 5F 44 72 69 76 65 72 2F ... -- CPU_WriteMem(668 bytes @ 0x20000164)  returns 0x29C (0009ms, 87924ms total)
T0470 89023:321 JLINK_WriteMem(0x20000400, 0x0164 Bytes, ...) - Data: 73 FD 06 46 06 E0 FF F7 6F FD 80 1B 64 28 01 D9 ... -- CPU_WriteMem(356 bytes @ 0x20000400)  returns 0x164 (0006ms, 87930ms total)
T0470 89023:327 JLINK_WriteReg(R0, 0x08002000)  returns 0x00 (0000ms, 87930ms total)
T0470 89023:327 JLINK_WriteReg(R1, 0x00000400)  returns 0x00 (0000ms, 87930ms total)
T0470 89023:327 JLINK_WriteReg(R2, 0x20000164)  returns 0x00 (0000ms, 87930ms total)
T0470 89023:327 JLINK_WriteReg(R3, 0x00000000)  returns 0x00 (0000ms, 87930ms total)
T0470 89023:327 JLINK_WriteReg(R4, 0x00000000)  returns 0x00 (0000ms, 87930ms total)
T0470 89023:327 JLINK_WriteReg(R5, 0x00000000)  returns 0x00 (0000ms, 87930ms total)
T0470 89023:327 JLINK_WriteReg(R6, 0x00000000)  returns 0x00 (0000ms, 87930ms total)
T0470 89023:327 JLINK_WriteReg(R7, 0x00000000)  returns 0x00 (0000ms, 87930ms total)
T0470 89023:327 JLINK_WriteReg(R8, 0x00000000)  returns 0x00 (0000ms, 87930ms total)
T0470 89023:327 JLINK_WriteReg(R9, 0x20000160)  returns 0x00 (0000ms, 87930ms total)
T0470 89023:327 JLINK_WriteReg(R10, 0x00000000)  returns 0x00 (0000ms, 87930ms total)
T0470 89023:327 JLINK_WriteReg(R11, 0x00000000)  returns 0x00 (0000ms, 87930ms total)
T0470 89023:327 JLINK_WriteReg(R12, 0x00000000)  returns 0x00 (0000ms, 87930ms total)
